<Qucs Dataset 0.0.15>
<indep x 10>
  +5.00000000000e+00
  +1.00000000000e+01
  +1.50000000000e+01
  +2.00000000000e+01
  +2.50000000000e+01
  +3.00000000000e+01
  +3.50000000000e+01
  +4.00000000000e+01
  +4.50000000000e+01
  +5.00000000000e+01
</indep>
<dep V1.I x>
  -3.45000000000e+00
  -2.30000000000e+00
  -1.72500000000e+00
  -1.38000000000e+00
  -1.15000000000e+00
  -9.85714285714e-01
  -8.62500000000e-01
  -7.66666666667e-01
  -6.90000000000e-01
  -6.27272727273e-01
</dep>
<dep _net1.V x>
  +1.72500000000e+01
  +2.30000000000e+01
  +2.58750000000e+01
  +2.76000000000e+01
  +2.87500000000e+01
  +2.95714285714e+01
  +3.01875000000e+01
  +3.06666666667e+01
  +3.10500000000e+01
  +3.13636363636e+01
</dep>
<dep _net0.V x>
  +3.45000000000e+01
  +3.45000000000e+01
  +3.45000000000e+01
  +3.45000000000e+01
  +3.45000000000e+01
  +3.45000000000e+01
  +3.45000000000e+01
  +3.45000000000e+01
  +3.45000000000e+01
  +3.45000000000e+01
</dep>
